;$FILEVERSION=1.1
;$STARTTIME=45569.324145706
;
;   Start time: 10/4/2024 07:46:46.189.0
;   Generated by PCAN-View v5.2.0.926
;
;   Message Number
;   |         Time Offset (ms)
;   |         |        Type
;   |         |        |        ID (hex)
;   |         |        |        |     Data Length
;   |         |        |        |     |   Data Bytes (hex) ...
;   |         |        |        |     |   |
;---+--   ----+----  --+--  ----+---  +  -+ -- -- -- -- -- -- --
     1)        57.5  Rx         03A8  8  D1 FD 00 00 00 00 00 00 
     2)      1081.4  Rx         03A8  8  D1 FD 00 00 00 00 00 00 
     3)      1145.4  Rx         02A8  8  05 04 F1 02 00 0A 00 00 
     4)      1225.4  Rx         07D1  8  0A 52 45 00 10 00 00 00 
     5)      2105.4  Rx         03A8  8  D1 FD 00 00 00 00 00 00 
     6)      3129.3  Rx         03A8  8  D1 FD 00 00 00 00 00 00 
     7)      3792.9  Rx     00001090  8  00 00 00 00 00 00 00 00 
     8)      4153.3  Rx         03A8  8  D1 FD 00 00 00 00 00 00 
     9)      5145.1  Rx         02A8  8  05 04 F1 02 00 0A 00 00 
    10)      5177.1  Rx         03A8  8  D1 FD 00 00 00 00 00 00 
    11)      5550.4  Rx     115D4009  8  41 41 01 00 7F 00 00 01 
    12)      5550.9  Rx     115D4009  8  41 41 01 00 7F 00 00 01 
    13)      5551.5  Rx     115D4009  8  41 41 01 00 7F 00 00 01 
    14)      5552.1  Rx     115D4009  8  41 41 01 00 7F 00 00 01 
    15)      5552.7  Rx     115D4009  8  41 41 01 00 7F 00 00 01 
    16)      5553.2  Rx         0300  8  01 00 00 00 00 00 00 00 
    17)      5553.7  Rx         0310  8  00 00 00 00 00 00 00 00 
    18)      5554.2  Rx         0320  8  00 00 00 00 00 00 00 00 
    19)      5554.7  Rx     13000330  8  2B 02 00 00 F1 02 6C 0B 
    20)      5555.3  Rx     13000340  8  00 00 00 00 00 00 02 00 
    21)      5555.9  Rx     13000350  8  01 01 00 00 00 00 00 77 
    22)      5556.5  Rx     13000331  8  DB 96 04 00 00 00 00 00 
    23)      5557.0  Rx         0300  8  01 00 00 00 00 00 00 00 
    24)      5557.5  Rx         0310  8  00 00 00 00 00 00 00 00 
    25)      5558.1  Rx     115D4009  8  41 41 01 00 7F 00 00 01 
    26)      5558.6  Rx         0300  8  01 00 00 00 00 00 00 00 
    27)      5559.1  Rx         0310  8  00 00 00 00 00 00 00 00 
    28)      5559.6  Rx         0320  8  00 00 00 00 00 00 00 00 
    29)      5560.2  Rx     13000330  8  2B 02 00 00 F1 02 6C 0B 
    30)      5560.8  Rx     13000340  8  00 00 00 00 00 00 02 00 
    31)      5561.3  Rx     13000350  8  01 01 00 00 00 00 00 77 
    32)      5561.9  Rx     13000345  8  FF FF FF FF FF FF FF FF 
    33)      5658.0  Rx     115D4009  8  41 41 01 00 7F 00 00 01 
    34)      5758.0  Rx     115D4009  8  41 41 01 00 7F 00 00 01 
    35)      5758.5  Rx         0300  8  01 00 00 00 00 00 00 00 
    36)      5759.0  Rx         0310  8  00 00 00 00 00 00 00 00 
    37)      5759.5  Rx         0320  8  00 00 00 00 00 00 00 00 
    38)      5760.1  Rx     13000330  8  2B 02 00 00 F1 02 6C 0B 
    39)      5760.7  Rx     13000340  8  00 00 00 00 00 00 02 00 
    40)      5761.2  Rx     13000350  8  01 01 00 00 00 00 00 77 
    41)      5761.8  Rx     13000360  8  00 00 00 00 60 55 00 00 
    42)      5858.0  Rx     115D4009  8  41 41 01 00 7F 00 00 01 
    43)      5958.0  Rx     115D4009  8  41 41 01 00 7F 00 00 01 
    44)      5958.5  Rx         0300  8  01 00 00 00 00 00 00 00 
    45)      5959.0  Rx         0310  8  00 00 00 00 00 00 00 00 
    46)      5959.5  Rx         0320  8  00 00 00 00 00 00 00 00 
    47)      5960.1  Rx     13000330  8  2B 02 00 00 F1 02 6C 0B 
    48)      5960.7  Rx     13000340  8  00 00 00 00 00 00 02 00 
    49)      5961.2  Rx     13000350  8  01 01 00 00 00 00 00 77 
    50)      5961.8  Rx     14000361  8  2B 02 02 5E 2D EA 08 07 
    51)      6058.0  Rx     115D4009  8  41 41 01 00 7F 00 00 01 
    52)      6158.0  Rx     115D4009  8  41 41 01 00 7F 00 00 01 
    53)      6158.5  Rx         0300  8  01 00 00 00 00 00 00 00 
    54)      6159.0  Rx         0310  8  00 00 00 00 00 00 00 00 
    55)      6159.5  Rx         0320  8  00 00 00 00 00 00 00 00 
    56)      6160.1  Rx     13000330  8  2B 02 00 00 F1 02 6C 0B 
    57)      6160.7  Rx     13000340  8  00 00 00 00 00 00 02 00 
    58)      6161.3  Rx     13000350  8  01 01 00 00 00 00 00 77 
    59)      6161.8  Rx     14000362  8  6B 0B 00 6A CB B6 65 66 
    60)      6201.1  Rx         03A8  8  D1 FD 00 00 00 00 00 00 
    61)      6258.0  Rx     115D4009  8  41 41 01 00 7F 00 00 01 
    62)      6358.0  Rx     115D4009  8  41 41 01 00 7F 00 00 01 
    63)      6358.5  Rx         0300  8  01 00 00 00 00 00 00 00 
    64)      6359.0  Rx         0310  8  00 00 00 00 00 00 00 00 
    65)      6359.5  Rx         0320  8  00 00 00 00 00 00 00 00 
    66)      6360.1  Rx     13000330  8  2B 02 00 00 F1 02 6C 0B 
    67)      6360.7  Rx     13000340  8  00 00 00 00 00 00 02 00 
    68)      6361.3  Rx     13000350  8  01 01 00 00 00 00 00 77 
    69)      6361.8  Rx     14000363  8  F1 02 02 D3 82 3E 08 07 
    70)      6458.0  Rx     115D4009  8  41 41 01 00 7F 00 00 01 
    71)      6558.0  Rx     115D4009  8  41 41 01 00 7F 00 00 01 
    72)      6558.5  Rx         0300  8  01 00 00 00 00 00 00 00 
    73)      6559.1  Rx         0310  8  00 00 00 00 00 00 00 00 
    74)      6559.6  Rx         0320  8  00 00 00 00 00 00 00 00 
    75)      6560.1  Rx     13000330  8  2B 02 00 00 F1 02 6C 0B 
    76)      6560.7  Rx     13000340  8  00 00 00 00 00 00 02 00 
    77)      6561.3  Rx     13000350  8  01 01 00 00 00 00 00 77 
    78)      6561.9  Rx     14000364  8  00 00 00 00 00 00 00 00 
    79)      6658.0  Rx     115D4009  8  41 41 01 00 7F 00 00 01 
    80)      6758.1  Rx     115D4009  8  41 41 01 00 7F 00 00 01 
    81)      6758.6  Rx         0300  8  01 00 00 00 00 00 00 00 
    82)      6759.0  Rx         0310  8  00 00 00 00 00 00 00 00 
    83)      6759.5  Rx         0320  8  00 00 00 00 00 00 00 00 
    84)      6760.1  Rx     13000330  8  2B 02 00 00 F1 02 6C 0B 
    85)      6760.7  Rx     13000340  8  00 00 00 00 00 00 02 00 
    86)      6761.3  Rx     13000350  8  01 01 00 00 00 00 00 77 
    87)      6761.8  Rx     13000331  8  92 9B 04 00 00 00 00 00 
    88)      6858.0  Rx     115D4009  8  41 41 01 00 7F 00 00 01 
    89)      6958.0  Rx     115D4009  8  41 41 01 00 7F 00 00 01 
    90)      6958.5  Rx         0300  8  01 00 00 00 00 00 00 00 
    91)      6959.1  Rx         0310  8  00 00 00 00 00 00 00 00 
    92)      6959.6  Rx         0320  8  00 00 00 00 00 00 00 00 
    93)      6960.1  Rx     13000330  8  2B 02 00 00 F1 02 6C 0B 
    94)      6960.7  Rx     13000340  8  00 00 00 00 00 00 02 00 
    95)      6961.3  Rx     13000350  8  01 01 00 00 00 00 00 77 
    96)      6961.9  Rx     13000333  8  4A B7 4D 18 0C 00 00 00 
    97)      7058.0  Rx     115D4009  8  41 41 01 00 7F 00 00 01 
    98)      7158.1  Rx     115D4009  8  41 41 01 00 7F 00 00 01 
    99)      7158.6  Rx         0300  8  01 00 00 00 00 00 00 00 
   100)      7159.1  Rx         0310  8  00 00 00 00 00 00 00 00 
   101)      7159.5  Rx         0320  8  00 00 00 00 00 00 00 00 
   102)      7160.1  Rx     13000330  8  2B 02 00 00 F1 02 6C 0B 
   103)      7160.7  Rx     13000340  8  00 00 00 00 00 00 02 00 
   104)      7161.3  Rx     13000350  8  01 01 00 00 00 00 00 77 
   105)      7161.9  Rx     13000345  8  FF FF FF FF FF FF FF FF 
   106)      7225.0  Rx         03A8  8  D1 FD 00 00 00 00 00 00 
   107)      7258.1  Rx     115D4009  8  41 41 01 00 7F 00 00 01 
   108)      7358.1  Rx     115D4009  8  41 41 01 00 7F 00 00 01 
   109)      7358.5  Rx         0300  8  01 00 00 00 00 00 00 00 
   110)      7359.1  Rx         0310  8  00 00 00 00 00 00 00 00 
   111)      7359.6  Rx         0320  8  00 00 00 00 00 00 00 00 
   112)      7360.1  Rx     13000330  8  2B 02 00 00 F1 02 6C 0B 
   113)      7360.7  Rx     13000340  8  00 00 00 00 00 00 02 00 
   114)      7361.3  Rx     13000350  8  01 01 00 00 00 00 00 77 
   115)      7361.9  Rx     13000360  8  00 00 00 00 60 55 00 00 
   116)      7458.1  Rx     115D4009  8  41 41 01 00 7F 00 00 01 
   117)      7558.1  Rx     115D4009  8  41 41 01 00 7F 00 00 01 
   118)      7558.6  Rx         0300  8  01 00 00 00 00 00 00 00 
   119)      7559.1  Rx         0310  8  00 00 00 00 00 00 00 00 
   120)      7559.6  Rx         0320  8  00 00 00 00 00 00 00 00 
   121)      7560.2  Rx     13000330  8  2B 02 00 00 F1 02 6C 0B 
   122)      7560.7  Rx     13000340  8  00 00 00 00 00 00 02 00 
   123)      7561.3  Rx     13000350  8  01 01 00 00 00 00 00 77 
   124)      7561.9  Rx     14000361  8  2B 02 02 5E 2D EA 08 07 
   125)      7658.1  Rx     115D4009  8  41 41 01 00 7F 00 00 01 
   126)      7758.1  Rx     115D4009  8  41 41 01 00 7F 00 00 01 
   127)      7758.6  Rx         0300  8  01 00 00 00 00 00 00 00 
   128)      7759.1  Rx         0310  8  00 00 00 00 00 00 00 00 
   129)      7759.6  Rx         0320  8  00 00 00 00 00 00 00 00 
   130)      7760.2  Rx     13000330  8  2B 02 00 00 F1 02 6C 0B 
   131)      7760.8  Rx     13000340  8  00 00 00 00 00 00 02 00 
   132)      7761.4  Rx     13000350  8  01 01 00 00 00 00 00 77 
   133)      7761.9  Rx     14000362  8  6B 0B 00 6A CB B6 65 66 
   134)      7858.1  Rx     115D4009  8  41 41 01 00 7F 00 00 01 
   135)      7958.1  Rx     115D4009  8  41 41 01 00 7F 00 00 01 
   136)      7958.6  Rx         0300  8  01 00 00 00 00 00 00 00 
   137)      7959.1  Rx         0310  8  00 00 00 00 00 00 00 00 
   138)      7959.6  Rx         0320  8  00 00 00 00 00 00 00 00 
   139)      7960.2  Rx     13000330  8  2B 02 00 00 F1 02 6C 0B 
   140)      7960.8  Rx     13000340  8  00 00 00 00 00 00 02 00 
   141)      7961.4  Rx     13000350  8  01 01 00 00 00 00 00 77 
   142)      7961.9  Rx     14000363  8  F1 02 02 D3 82 3E 08 07 
   143)      8058.1  Rx     115D4009  8  41 41 01 00 7F 00 00 01 
   144)      8158.1  Rx     115D4009  8  41 41 01 00 7F 00 00 01 
   145)      8158.6  Rx         0300  8  01 00 00 00 00 00 00 00 
   146)      8159.1  Rx         0310  8  00 00 00 00 00 00 00 00 
   147)      8159.6  Rx         0320  8  00 00 00 00 00 00 00 00 
   148)      8160.2  Rx     13000330  8  2B 02 00 00 F1 02 6C 0B 
   149)      8160.8  Rx     13000340  8  00 00 00 00 00 00 02 00 
   150)      8161.4  Rx     13000350  8  01 01 00 00 00 00 00 77 
   151)      8162.0  Rx     14000364  8  00 00 00 00 00 00 00 00 
   152)      8249.0  Rx         03A8  8  D1 FD 00 00 00 00 00 00 
   153)      8258.1  Rx     115D4009  8  41 41 01 00 7F 00 00 01 
   154)      8358.1  Rx     115D4009  8  41 41 01 00 7F 00 00 01 
   155)      8358.6  Rx         0300  8  01 00 00 00 00 00 00 00 
   156)      8359.1  Rx         0310  8  00 00 00 00 00 00 00 00 
   157)      8359.6  Rx         0320  8  00 00 00 00 00 00 00 00 
   158)      8360.2  Rx     13000330  8  2B 02 00 00 F1 02 6C 0B 
   159)      8360.8  Rx     13000340  8  00 00 00 00 00 00 02 00 
   160)      8361.4  Rx     13000350  8  01 01 00 00 00 00 00 77 
   161)      8361.9  Rx     13000331  8  D2 A1 04 00 00 00 00 00 
   162)      8458.1  Rx     115D4009  8  41 41 01 00 7F 00 00 01 
   163)      8558.1  Rx     115D4009  8  41 41 01 00 7F 00 00 01 
   164)      8558.7  Rx         0300  8  01 00 00 00 00 00 00 00 
   165)      8559.2  Rx         0310  8  00 00 00 00 00 00 00 00 
   166)      8559.7  Rx         0320  8  00 00 00 00 00 00 00 00 
   167)      8560.2  Rx     13000330  8  2B 02 00 00 F1 02 6C 0B 
   168)      8560.8  Rx     13000340  8  00 00 00 00 00 00 02 00 
   169)      8561.4  Rx     13000350  8  01 01 00 00 00 00 00 77 
   170)      8562.0  Rx     13000333  8  4A B7 4D 18 0C 00 00 00 
   171)      8658.2  Rx     115D4009  8  41 41 01 00 7F 00 00 01 
   172)      8758.2  Rx     115D4009  8  41 41 01 00 7F 00 00 01 
   173)      8758.7  Rx         0300  8  01 00 00 00 00 00 00 00 
   174)      8759.2  Rx         0310  8  00 00 00 00 00 00 00 00 
   175)      8759.7  Rx         0320  8  00 00 00 00 00 00 00 00 
   176)      8760.2  Rx     13000330  8  2B 02 00 00 F1 02 6C 0B 
   177)      8760.8  Rx     13000340  8  00 00 00 00 00 00 02 00 
   178)      8761.4  Rx     13000350  8  01 01 00 00 00 00 00 77 
   179)      8762.0  Rx     13000345  8  FF FF FF FF FF FF FF FF 
   180)      8858.2  Rx     115D4009  8  41 41 01 00 7F 00 00 01 
   181)      8958.2  Rx     115D4009  8  41 41 01 00 7F 00 00 01 
   182)      8958.7  Rx         0300  8  01 00 00 00 00 00 00 00 
   183)      8959.2  Rx         0310  8  00 00 00 00 00 00 00 00 
   184)      8959.7  Rx         0320  8  00 00 00 00 00 00 00 00 
   185)      8960.2  Rx     13000330  8  2B 02 00 00 F1 02 6C 0B 
   186)      8960.8  Rx     13000340  8  00 00 00 00 00 00 02 00 
   187)      8961.4  Rx     13000350  8  01 01 00 00 00 00 00 77 
   188)      8962.0  Rx     13000360  8  00 00 00 00 60 55 00 00 
   189)      9058.2  Rx     115D4009  8  41 41 01 00 7F 00 00 01 
   190)      9144.7  Rx         02A8  8  05 04 F1 02 00 0A 00 00 
   191)      9158.2  Rx     115D4009  8  41 41 01 00 7F 00 00 01 
   192)      9158.7  Rx         0300  8  01 00 00 00 00 00 00 00 
   193)      9159.2  Rx         0310  8  00 00 00 00 00 00 00 00 
   194)      9159.7  Rx         0320  8  00 00 00 00 00 00 00 00 
   195)      9160.3  Rx     13000330  8  2B 02 00 00 F1 02 6C 0B 
   196)      9160.8  Rx     13000340  8  00 00 00 00 00 00 02 00 
   197)      9161.4  Rx     13000350  8  01 01 00 00 00 00 00 77 
   198)      9162.0  Rx     14000361  8  2B 02 02 5E 2D EA 08 07 
   199)      9224.9  Rx         07D1  8  0A 52 45 00 10 00 00 00 
   200)      9258.2  Rx     115D4009  8  41 41 01 00 7F 00 00 01 
   201)      9272.9  Rx         03A8  8  D1 FD 00 00 00 00 00 00 
   202)      9358.2  Rx     115D4009  8  41 41 01 00 7F 00 00 01 
   203)      9358.7  Rx         0300  8  01 00 00 00 00 00 00 00 
   204)      9359.2  Rx         0310  8  00 00 00 00 00 00 00 00 
   205)      9359.7  Rx         0320  8  00 00 00 00 00 00 00 00 
   206)      9360.3  Rx     13000330  8  2B 02 00 00 F1 02 6C 0B 
   207)      9360.8  Rx     13000340  8  00 00 00 00 00 00 02 00 
   208)      9361.4  Rx     13000350  8  01 01 00 00 00 00 00 77 
   209)      9362.0  Rx     14000362  8  6B 0B 00 6A CB B6 65 66 
   210)      9458.2  Rx     115D4009  8  41 41 01 00 7F 00 00 01 
   211)      9558.2  Rx     115D4009  8  41 41 01 00 7F 00 00 01 
   212)      9558.7  Rx         0300  8  01 00 00 00 00 00 00 00 
   213)      9559.2  Rx         0310  8  00 00 00 00 00 00 00 00 
   214)      9559.7  Rx         0320  8  00 00 00 00 00 00 00 00 
   215)      9560.3  Rx     13000330  8  2B 02 00 00 F1 02 6C 0B 
   216)      9560.9  Rx     13000340  8  00 00 00 00 00 00 02 00 
   217)      9561.4  Rx     13000350  8  01 01 00 00 00 00 00 77 
   218)      9562.0  Rx     14000363  8  F1 02 02 D3 82 3E 08 07 
   219)      9658.2  Rx     115D4009  8  41 41 01 00 7F 00 00 01 
   220)      9758.2  Rx     115D4009  8  41 41 01 00 7F 00 00 01 
   221)      9758.7  Rx         0300  8  01 00 00 00 00 00 00 00 
   222)      9759.2  Rx         0310  8  00 00 00 00 00 00 00 00 
   223)      9759.7  Rx         0320  8  00 00 00 00 00 00 00 00 
   224)      9760.2  Rx     13000330  8  2B 02 00 00 F1 02 6C 0B 
   225)      9760.8  Rx     13000340  8  00 00 00 00 00 00 02 00 
   226)      9761.4  Rx     13000350  8  01 01 00 00 00 00 00 77 
   227)      9762.0  Rx     14000364  8  00 00 00 00 00 00 00 00 
   228)      9858.2  Rx     115D4009  8  41 41 01 00 7F 00 00 01 
   229)      9958.2  Rx     115D4009  8  41 41 01 00 7F 00 00 01 
   230)      9958.7  Rx         0300  8  01 00 00 00 00 00 00 00 
   231)      9959.2  Rx         0310  8  00 00 00 00 00 00 00 00 
   232)      9959.7  Rx         0320  8  00 00 00 00 00 00 00 00 
   233)      9960.3  Rx     13000330  8  2B 02 00 00 F1 02 6C 0B 
   234)      9960.9  Rx     13000340  8  00 00 00 00 00 00 02 00 
   235)      9961.4  Rx     13000350  8  01 01 00 00 00 00 00 77 
   236)      9962.0  Rx     13000331  8  12 A8 04 00 00 00 00 00 
   237)     10058.2  Rx     115D4009  8  41 41 01 00 7F 00 00 01 
   238)     10158.2  Rx     115D4009  8  41 41 01 00 7F 00 00 01 
   239)     10158.7  Rx         0300  8  01 00 00 00 00 00 00 00 
   240)     10159.2  Rx         0310  8  00 00 00 00 00 00 00 00 
   241)     10159.7  Rx         0320  8  00 00 00 00 00 00 00 00 
   242)     10160.3  Rx     13000330  8  2B 02 00 00 F1 02 6C 0B 
   243)     10160.8  Rx     13000340  8  00 00 00 00 00 00 02 00 
   244)     10161.4  Rx     13000350  8  01 01 00 00 00 00 00 77 
   245)     10162.0  Rx     13000333  8  4A B7 4D 18 0C 00 00 00 
   246)     10258.2  Rx     115D4009  8  41 41 01 00 7F 00 00 01 
   247)     10296.8  Rx         03A8  8  D1 FD 00 00 00 00 00 00 
   248)     10358.2  Rx     115D4009  8  41 41 01 00 7F 00 00 01 
   249)     10358.7  Rx         0300  8  01 00 00 00 00 00 00 00 
   250)     10359.2  Rx         0310  8  00 00 00 00 00 80 00 00 
   251)     10359.7  Rx         0320  8  00 00 00 00 00 00 00 00 
   252)     10360.3  Rx     13000330  8  2B 02 00 00 F1 02 6C 0B 
   253)     10360.9  Rx     13000340  8  00 00 00 00 00 00 02 00 
   254)     10361.5  Rx     13000350  8  01 01 00 00 00 00 00 77 
   255)     10362.1  Rx     13000345  8  FF FF FF FF FF FF FF FF 
   256)     10458.2  Rx     115D4009  8  41 41 01 00 7F 00 00 01 
   257)     10558.2  Rx     115D4009  8  41 41 01 00 7F 00 00 01 
   258)     10558.7  Rx         0300  8  01 00 00 00 00 00 00 00 
   259)     10559.2  Rx         0310  8  00 00 00 00 00 80 00 00 
   260)     10559.8  Rx         0320  8  00 00 00 00 00 00 00 00 
   261)     10560.3  Rx     13000330  8  2B 02 00 00 F1 02 6C 0B 
   262)     10560.9  Rx     13000340  8  00 00 00 00 00 00 02 00 
   263)     10561.5  Rx     13000350  8  01 01 00 00 00 00 00 77 
   264)     10562.1  Rx     13000360  8  00 00 00 00 60 55 00 00 
   265)     10658.2  Rx     115D4009  8  41 41 01 00 7F 00 00 01 
   266)     10758.2  Rx     115D4009  8  41 41 01 00 7F 00 00 01 
   267)     10758.8  Rx         0300  8  01 00 00 00 00 00 00 00 
   268)     10759.2  Rx         0310  8  00 00 00 00 00 80 00 00 
   269)     10759.7  Rx         0320  8  00 00 00 00 00 00 00 00 
   270)     10760.3  Rx     13000330  8  2B 02 00 00 F1 02 6C 0B 
   271)     10760.9  Rx     13000340  8  00 00 00 00 00 00 02 00 
   272)     10761.5  Rx     13000350  8  01 01 00 00 00 00 00 77 
   273)     10762.0  Rx     14000361  8  2B 02 02 5E 2D EA 08 07 
   274)     10858.3  Rx     115D4009  8  41 41 01 00 7F 00 00 01 
   275)     10958.2  Rx     115D4009  8  41 41 01 00 7F 00 00 01 
   276)     10958.7  Rx         0300  8  01 00 00 00 00 00 00 00 
   277)     10959.2  Rx         0310  8  00 00 00 00 00 80 00 00 
   278)     10959.8  Rx         0320  8  00 00 00 00 00 00 00 00 
   279)     10960.3  Rx     13000330  8  2B 02 00 00 F1 02 6C 0B 
   280)     10960.9  Rx     13000340  8  00 00 00 00 00 00 02 00 
   281)     10961.5  Rx     13000350  8  01 01 00 00 00 00 00 77 
   282)     10962.0  Rx     14000362  8  6B 0B 00 6A CB B6 65 66 
   283)     11058.2  Rx     115D4009  8  41 41 01 00 7F 00 00 01 
   284)     11158.2  Rx     115D4009  8  41 41 01 00 7F 00 00 01 
   285)     11158.8  Rx         0300  8  01 00 00 00 00 00 00 00 
   286)     11159.3  Rx         0310  8  00 00 00 00 00 80 00 00 
   287)     11159.7  Rx         0320  8  00 00 00 00 00 00 00 00 
   288)     11160.3  Rx     13000330  8  2B 02 00 00 F1 02 6C 0B 
   289)     11160.9  Rx     13000340  8  00 00 00 00 00 00 02 00 
   290)     11161.5  Rx     13000350  8  01 01 00 00 00 00 00 77 
   291)     11162.0  Rx     14000363  8  F1 02 02 D3 82 3E 08 07 
   292)     11258.3  Rx     115D4009  8  41 41 01 00 7F 00 00 01 
   293)     11320.8  Rx         03A8  8  D1 FD 00 00 00 00 00 00 
   294)     11358.3  Rx     115D4009  8  41 41 01 00 7F 00 00 01 
   295)     11358.8  Rx         0300  8  01 00 00 00 00 00 00 00 
   296)     11359.3  Rx         0310  8  00 00 00 00 00 80 00 00 
   297)     11359.8  Rx         0320  8  00 00 00 00 00 00 00 00 
   298)     11360.4  Rx     13000330  8  2B 02 00 00 F1 02 6C 0B 
   299)     11360.9  Rx     13000340  8  00 00 00 00 00 00 02 00 
   300)     11361.5  Rx     13000350  8  01 01 00 00 00 00 00 77 
   301)     11362.1  Rx     14000364  8  00 00 00 00 00 00 00 00 
   302)     11458.3  Rx     115D4009  8  41 41 01 00 7F 00 00 01 
   303)     11558.3  Rx     115D4009  8  41 41 01 00 7F 00 00 01 
   304)     11558.8  Rx         0300  8  01 00 00 00 00 00 00 00 
   305)     11559.3  Rx         0310  8  00 00 00 00 00 80 00 00 
   306)     11559.8  Rx         0320  8  00 00 00 00 00 00 00 00 
   307)     11560.4  Rx     13000330  8  2B 02 00 00 F1 02 6C 0B 
   308)     11560.9  Rx     13000340  8  00 00 00 00 00 00 02 00 
   309)     11561.5  Rx     13000350  8  01 01 00 00 00 00 00 77 
   310)     11562.1  Rx     13000331  8  52 AE 04 00 00 00 00 00 
   311)     11658.3  Rx     115D4009  8  41 41 01 00 7F 00 00 01 
   312)     11758.3  Rx     115D4009  8  41 41 01 00 7F 00 00 01 
   313)     11758.8  Rx         0300  8  01 00 00 00 00 00 00 00 
   314)     11759.3  Rx         0310  8  00 00 00 00 00 80 00 00 
   315)     11759.8  Rx         0320  8  00 00 00 00 00 00 00 00 
   316)     11760.3  Rx     13000330  8  2B 02 00 00 F1 02 6C 0B 
   317)     11760.9  Rx     13000340  8  00 00 00 00 00 00 02 00 
   318)     11761.5  Rx     13000350  8  01 01 00 00 00 00 00 77 
   319)     11762.1  Rx     13000333  8  4A B7 4D 18 0C 00 00 00 
   320)     11858.3  Rx     115D4009  8  41 41 01 00 7F 00 00 01 
   321)     11958.3  Rx     115D4009  8  41 41 01 00 7F 00 00 01 
   322)     11958.8  Rx         0300  8  01 00 00 00 00 00 00 00 
   323)     11959.3  Rx         0310  8  00 00 00 00 00 80 00 00 
   324)     11959.8  Rx         0320  8  00 00 00 00 00 00 00 00 
   325)     11960.4  Rx     13000330  8  2B 02 00 00 F1 02 6C 0B 
   326)     11961.0  Rx     13000340  8  00 00 00 00 00 00 02 00 
   327)     11961.5  Rx     13000350  8  01 01 00 00 00 00 00 77 
   328)     11962.1  Rx     13000345  8  FF FF FF FF FF FF FF FF 
   329)     12058.3  Rx     115D4009  8  41 41 01 00 7F 00 00 01 
   330)     12158.3  Rx     115D4009  8  41 41 01 00 7F 00 00 01 
   331)     12158.8  Rx         0300  8  01 00 00 00 00 00 00 00 
   332)     12159.3  Rx         0310  8  00 00 00 00 00 80 00 00 
   333)     12159.8  Rx         0320  8  00 00 00 00 00 00 00 00 
   334)     12160.4  Rx     13000330  8  2B 02 00 00 F1 02 6C 0B 
   335)     12160.9  Rx     13000340  8  00 00 00 00 00 00 02 00 
   336)     12161.5  Rx     13000350  8  01 01 00 00 00 00 00 77 
   337)     12162.1  Rx     13000360  8  00 00 00 00 60 55 00 00 
   338)     12258.3  Rx     115D4009  8  41 41 01 00 7F 00 00 01 
   339)     12344.5  Rx         03A8  8  D1 FD 00 00 00 00 00 00 
   340)     12358.3  Rx     115D4009  8  41 41 01 00 7F 00 00 01 
   341)     12358.8  Rx         0300  8  01 00 00 00 00 00 00 00 
   342)     12359.4  Rx         0310  8  00 00 00 00 00 80 00 00 
   343)     12359.8  Rx         0320  8  00 00 00 00 00 00 00 00 
   344)     12360.4  Rx     13000330  8  2B 02 00 00 F1 02 6C 0B 
   345)     12361.0  Rx     13000340  8  00 00 00 00 00 00 02 00 
   346)     12361.6  Rx     13000350  8  01 01 00 00 00 00 00 77 
   347)     12362.1  Rx     14000361  8  2B 02 02 5E 2D EA 08 07 
   348)     12458.3  Rx     115D4009  8  41 41 01 00 7F 00 00 01 
   349)     12558.3  Rx     115D4009  8  41 41 01 00 7F 00 00 01 
   350)     12558.8  Rx         0300  8  01 00 00 00 00 00 00 00 
   351)     12559.3  Rx         0310  8  00 00 00 00 00 80 00 00 
   352)     12559.8  Rx         0320  8  00 00 00 00 00 00 00 00 
   353)     12560.4  Rx     13000330  8  2B 02 00 00 F1 02 6C 0B 
   354)     12560.9  Rx     13000340  8  00 00 00 00 00 00 02 00 
   355)     12561.5  Rx     13000350  8  01 01 00 00 00 00 00 77 
   356)     12562.1  Rx     14000362  8  6B 0B 00 6A CB B6 65 66 
   357)     12658.3  Rx     115D4009  8  41 41 01 00 7F 00 00 01 
   358)     12758.3  Rx     115D4009  8  41 41 01 00 7F 00 00 01 
   359)     12758.8  Rx         0300  8  01 00 00 00 00 00 00 00 
   360)     12759.3  Rx         0310  8  00 00 00 00 00 80 00 00 
   361)     12759.8  Rx         0320  8  00 00 00 00 00 00 00 00 
   362)     12760.4  Rx     13000330  8  2B 02 00 00 F1 02 6C 0B 
   363)     12761.0  Rx     13000340  8  00 00 00 00 00 00 02 00 
   364)     12761.6  Rx     13000350  8  01 01 00 00 00 00 00 77 
   365)     12762.1  Rx     14000363  8  F1 02 02 D3 82 3E 08 07 
   366)     12858.3  Rx     115D4009  8  41 41 01 00 7F 00 00 01 
   367)     12958.3  Rx     115D4009  8  41 41 01 00 7F 00 00 01 
   368)     12958.8  Rx         0300  8  01 00 00 00 00 00 00 00 
   369)     12959.3  Rx         0310  8  00 00 00 00 00 80 00 00 
   370)     12959.8  Rx         0320  8  00 00 00 00 00 00 00 00 
   371)     12960.4  Rx     13000330  8  2B 02 00 00 F1 02 6C 0B 
